
T0490 000:062 SEGGER J-Link V6.14b Log File (0000ms, 0034ms total)
T0490 000:062 DLL Compiled: Mar  9 2017 08:46:04 (0000ms, 0034ms total)
T0490 000:062 Logging started @ 2018-10-11 11:20 (0000ms, 0034ms total)
T0490 000:062 JLINK_SetWarnOutHandler(...) (0000ms, 0034ms total)
T0490 000:062 JLINK_OpenEx(...)
Firmware: J-Link ARM-OB STM32 compiled Aug 22 2012 19:52:04
Hardware: V7.00
S/N: 20090928
Feature(s): RDI,FlashDL,FlashBP,JFlash,GDBFullWEBSRV Webserver running on local port 19080 (0018ms, 0052ms total)
T0490 000:062   returns O.K. (0018ms, 0052ms total)
T0490 000:080 JLINK_SetErrorOutHandler(...) (0000ms, 0052ms total)
T0490 000:080 JLINK_ExecCommand("ProjectFile = "D:\¹¤×÷Çø\STM32L051-RFID_DeviceTracking-2018\software\project\JLinkSettings.ini"", ...). C:\Program Files (x86)\SEGGER\JLink_V614b\JLinkDevices.xml evaluated successfully.  returns 0x00 (0128ms, 0180ms total)
T0490 000:209 JLINK_ExecCommand("Device = STM32L051C8", ...). Device "STM32L051C8" selected.  returns 0x00 (0003ms, 0183ms total)
T0490 000:212 JLINK_ExecCommand("DisableConnectionTimeout", ...).   returns 0x01 (0000ms, 0183ms total)
T0490 000:212 JLINK_GetHardwareVersion()  returns 0x11170 (0000ms, 0183ms total)
T0490 000:212 JLINK_GetDLLVersion()  returns 61402 (0000ms, 0183ms total)
T0490 000:212 JLINK_GetFirmwareString(...) (0000ms, 0183ms total)
T0490 000:218 JLINK_GetDLLVersion()  returns 61402 (0000ms, 0183ms total)
T0490 000:218 JLINK_GetCompileDateTime() (0000ms, 0183ms total)
T0490 000:220 JLINK_GetFirmwareString(...) (0000ms, 0183ms total)
T0490 000:222 JLINK_GetHardwareVersion()  returns 0x11170 (0000ms, 0183ms total)
T0490 000:229 JLINK_TIF_Select(JLINKARM_TIF_SWD)  returns 0x00 (0003ms, 0186ms total)
T0490 000:232 JLINK_SetSpeed(5000) (0001ms, 0187ms total)
T0490 000:233 JLINK_GetId() >0x108 TIF>Found SWD-DP with ID 0x0BC11477 >0x0D TIF> >0x28 TIF> >0x0D TIF> >0x28 TIF> >0x0D TIF> >0x28 TIF> >0x0D TIF> >0x28 TIF> >0x0D TIF> >0x21 TIF> >0x0D TIF> >0x28 TIF> >0x0D TIF> >0x28 TIF> >0x0D TIF> >0x28 TIF> >0x0D TIF> >0x21 TIF> >0x0D TIF> >0x21 TIF> >0x0D TIF> >0x28 TIF> >0x0D TIF> >0x21 TIF> >0x0D TIF> >0x21 TIF> >0x0D TIF> >0x28 TIF> >0x0D TIF> >0x21 TIF> >0x0D TIF> >0x21 TIF> >0x0D TIF> >0x28 TIF> >0x0D TIF> >0x28 TIF> >0x0D TIF> >0x28 TIF> >0x0D TIF>
 >0x21 TIF> >0x0D TIF> >0x21 TIF> >0x0D TIF> >0x28 TIF> >0x0D TIF> >0x28 TIF> >0x0D TIF> >0x28 TIF> >0x0D TIF> >0x21 TIF> >0x0D TIF> >0x21 TIF> >0x0D TIF> >0x28 TIF> >0x0D TIF> >0x28 TIF> >0x0D TIF> >0x28 TIF> >0x0D TIF> >0x21 TIF> >0x0D TIF> >0x21 TIF> >0x0D TIF> >0x28 TIF> >0x0D TIF> >0x21 TIF> >0x0D TIF> >0x21 TIF> >0x0D TIF> >0x28 TIF> >0x0D TIF> >0x21 TIF> >0x0D TIF> >0x21 TIF> >0x0D TIF> >0x28 TIF> >0x0D TIF> >0x21 TIF> >0x0D TIF> >0x21 TIF> >0x0D TIF> >0x28 TIF> >0x0D TIF> >0x21 TIF> >0x0D TIF>
 >0x21 TIF> >0x0D TIF> >0x28 TIF> >0x0D TIF> >0x21 TIF> >0x0D TIF> >0x21 TIF> >0x108 TIF>Found SWD-DP with ID 0x0BC11477 >0x0D TIF> >0x28 TIF> >0x0D TIF> >0x28 TIF> >0x0D TIF> >0x28 TIF> >0x0D TIF> >0x28 TIF> >0x0D TIF> >0x21 TIF> >0x0D TIF> >0x28 TIF> >0x0D TIF> >0x28 TIF> >0x0D TIF> >0x21 TIF> >0x0D TIF> >0x21 TIF> >0x0D TIF> >0x21 TIF>AP-IDR: 0x04770031, Type: AHB-APAHB-AP ROM: 0xF0000000 (Base addr. of first ROM table) >0x0D TIF> >0x28 TIF> >0x0D TIF> >0x28 TIF> >0x0D TIF> >0x28 TIF> >0x0D TIF>
 >0x21 TIF> >0x0D TIF> >0x21 TIF> >0x0D TIF> >0x28 TIF> >0x0D TIF> >0x21 TIF> >0x0D TIF> >0x21 TIF>Found Cortex-M0 r0p1, Little endian. -- CPU_ReadMem(4 bytes @ 0xE000EDF0) -- CPU_WriteMem(4 bytes @ 0xE000EDF0) -- CPU_ReadMem(4 bytes @ 0xE0002000)FPUnit: 4 code (BP) slots and 0 literal slots -- CPU_ReadMem(4 bytes @ 0xE000EDFC) -- CPU_WriteMem(4 bytes @ 0xE000EDFC) -- CPU_ReadMem(4 bytes @ 0xE0001000) -- CPU_WriteMem(4 bytes @ 0xE0001000)CoreSight components:ROMTbl 0 @ F0000000
 -- CPU_ReadMem(16 bytes @ 0xF0000000) -- CPU_ReadMem(16 bytes @ 0xE00FFFF0) -- CPU_ReadMem(16 bytes @ 0xE00FFFE0)ROMTbl 0 [0]: F00FF000, CID: B105100D, PID: 000BB4C0 ROM TableROMTbl 1 @ E00FF000 -- CPU_ReadMem(16 bytes @ 0xE00FF000) -- CPU_ReadMem(16 bytes @ 0xE000EFF0) -- CPU_ReadMem(16 bytes @ 0xE000EFE0)ROMTbl 1 [0]: FFF0F000, CID: B105E00D, PID: 000BB008 SCS -- CPU_ReadMem(16 bytes @ 0xE0001FF0) -- CPU_ReadMem(16 bytes @ 0xE0001FE0)ROMTbl 1 [1]: FFF02000, CID: B105E00D, PID: 000BB00A DWT
 -- CPU_ReadMem(16 bytes @ 0xE0002FF0) -- CPU_ReadMem(16 bytes @ 0xE0002FE0)ROMTbl 1 [2]: FFF03000, CID: B105E00D, PID: 000BB00B FPB -- CPU is running -- CPU_WriteMem(4 bytes @ 0xE000EDF0) -- CPU is running -- CPU_WriteMem(4 bytes @ 0xE000EDFC) >0x35 TIF> -- CPU is running -- CPU_WriteMem(4 bytes @ 0xE000ED0C) >0x0D TIF> >0x28 TIF> -- CPU is running -- CPU_ReadMem(4 bytes @ 0xE000EDF0) -- CPU is running -- CPU_ReadMem(4 bytes @ 0xE000EDF0) -- CPU is running -- CPU_WriteMem(4 bytes @ 0xE000EDF0)
 -- CPU is running -- CPU_WriteMem(4 bytes @ 0xE000EDFC) -- CPU is running -- CPU_ReadMem(4 bytes @ 0xE000EDF0) -- CPU_WriteMem(4 bytes @ 0xE0002000) -- CPU_ReadMem(4 bytes @ 0xE000EDFC) -- CPU_ReadMem(4 bytes @ 0xE0001000) -- CPU_WriteMem(4 bytes @ 0xE0001000) -- CPU_WriteMem(8192 bytes @ 0x20000000) >0x0D TIF> >0x21 TIF>  returns 0x0BC11477 (0349ms, 0536ms total)
T0490 000:582 JLINK_GetDLLVersion()  returns 61402 (0000ms, 0536ms total)
T0490 000:582 JLINK_CORE_GetFound()  returns 0x60000FF (0000ms, 0536ms total)
T0490 000:582 JLINK_GetDebugInfo(0x100 = JLINKARM_ROM_TABLE_ADDR_INDEX) -- Value=0xF0000000  returns 0x00 (0000ms, 0536ms total)
T0490 000:584 JLINK_GetDebugInfo(0x100 = JLINKARM_ROM_TABLE_ADDR_INDEX) -- Value=0xF0000000  returns 0x00 (0000ms, 0536ms total)
T0490 000:584 JLINK_GetDebugInfo(0x101 = JLINKARM_DEBUG_INFO_ETM_ADDR_INDEX) -- Value=0x00000000  returns 0x00 (0000ms, 0536ms total)
T0490 000:584 JLINK_ReadMem (0xE0041FF0, 0x0010 Bytes, ...) -- CPU_ReadMem(16 bytes @ 0xE0041FF0) - Data: 00 00 00 00 00 00 00 00 00 00 00 00 00 00 00 00  returns 0x00 (0001ms, 0537ms total)
T0490 000:585 JLINK_GetDebugInfo(0x102 = JLINKARM_DEBUG_INFO_MTB_ADDR_INDEX) -- Value=0x00000000  returns 0x00 (0000ms, 0537ms total)
T0490 000:585 JLINK_GetDebugInfo(0x103 = JLINKARM_DEBUG_INFO_TPIU_ADDR_INDEX) -- Value=0x00000000  returns 0x00 (0000ms, 0537ms total)
T0490 000:585 JLINK_ReadMem (0xE0040FF0, 0x0010 Bytes, ...) -- CPU_ReadMem(16 bytes @ 0xE0040FF0) - Data: 00 00 00 00 00 00 00 00 00 00 00 00 00 00 00 00  returns 0x00 (0001ms, 0538ms total)
T0490 000:586 JLINK_GetDebugInfo(0x104 = JLINKARM_DEBUG_INFO_ITM_ADDR_INDEX) -- Value=0xE0000000  returns 0x00 (0000ms, 0538ms total)
T0490 000:586 JLINK_GetDebugInfo(0x105 = JLINKARM_DEBUG_INFO_DWT_ADDR_INDEX) -- Value=0xE0001000  returns 0x00 (0000ms, 0538ms total)
T0490 000:586 JLINK_GetDebugInfo(0x106 = JLINKARM_DEBUG_INFO_FPB_ADDR_INDEX) -- Value=0xE0002000  returns 0x00 (0000ms, 0538ms total)
T0490 000:586 JLINK_GetDebugInfo(0x107 = JLINKARM_DEBUG_INFO_NVIC_ADDR_INDEX) -- Value=0xE000E000  returns 0x00 (0000ms, 0538ms total)
T0490 000:586 JLINK_GetDebugInfo(0x10C = JLINKARM_DEBUG_INFO_DBG_ADDR_INDEX) -- Value=0xE000EDF0  returns 0x00 (0000ms, 0538ms total)
T0490 000:586 JLINK_ReadMemU32(0xE000ED00, 0x0001 Items, ...) -- CPU_ReadMem(4 bytes @ 0xE000ED00) - Data: 01 C6 0C 41  returns 0x01 (0001ms, 0539ms total)
T0490 000:587 JLINK_SetResetType(JLINKARM_CM3_RESET_TYPE_NORMAL)  returns JLINKARM_CM3_RESET_TYPE_NORMAL (0000ms, 0539ms total)
T0490 000:587 JLINK_Reset() -- CPU_ReadMem(4 bytes @ 0x20000000) -- CPU_WriteMem(4 bytes @ 0x20000000) -- CPU_WriteMem(4 bytes @ 0xE000EDF0) -- CPU_WriteMem(4 bytes @ 0xE000EDFC) >0x35 TIF> -- CPU_WriteMem(4 bytes @ 0xE000ED0C) >0x0D TIF> >0x28 TIF> -- CPU_ReadMem(4 bytes @ 0xE000EDF0) -- CPU_ReadMem(4 bytes @ 0xE000EDF0) -- CPU_WriteMem(4 bytes @ 0xE000EDF0) -- CPU_WriteMem(4 bytes @ 0xE000EDFC) -- CPU is running -- CPU_ReadMem(4 bytes @ 0xE000EDF0) -- CPU_WriteMem(4 bytes @ 0xE0002000)
 -- CPU_ReadMem(4 bytes @ 0xE000EDFC) -- CPU_ReadMem(4 bytes @ 0xE0001000) -- CPU_WriteMem(4 bytes @ 0xE0001000) (0077ms, 0616ms total)
T0490 000:664 JLINK_Halt()  returns 0x00 (0000ms, 0616ms total)
T0490 000:664 JLINK_IsHalted()  returns TRUE (0000ms, 0616ms total)
T0490 000:664 JLINK_ReadMemU32(0xE000EDF0, 0x0001 Items, ...) -- CPU_ReadMem(4 bytes @ 0xE000EDF0) - Data: 03 00 03 01  returns 0x01 (0001ms, 0617ms total)
T0490 000:665 JLINK_WriteU32(0xE000EDF0, 0xA05F0003) -- CPU_WriteMem(4 bytes @ 0xE000EDF0)  returns 0x00 (0001ms, 0618ms total)
T0490 000:666 JLINK_WriteU32(0xE000EDFC, 0x01000000) -- CPU_WriteMem(4 bytes @ 0xE000EDFC)  returns 0x00 (0001ms, 0619ms total)
T0490 000:674 JLINK_GetHWStatus(...)  returns 0x00 (0001ms, 0620ms total)
T0490 000:680 JLINK_GetNumBPUnits(Type = 0xFFFFFF00)  returns 0x04 (0000ms, 0620ms total)
T0490 000:680 JLINK_GetNumBPUnits(Type = 0xF0)  returns 0x2000 (0000ms, 0620ms total)
T0490 000:680 JLINK_GetNumWPUnits()  returns 0x02 (0000ms, 0620ms total)
T0490 000:685 JLINK_GetSpeed()  returns 0xFA0 (0000ms, 0620ms total)
T0490 000:688 JLINK_ReadMemU32(0xE000E004, 0x0001 Items, ...) -- CPU_ReadMem(4 bytes @ 0xE000E004) - Data: 00 00 00 00  returns 0x01 (0001ms, 0621ms total)
T0490 000:689 JLINK_Halt()  returns 0x00 (0000ms, 0621ms total)
T0490 000:689 JLINK_IsHalted()  returns TRUE (0000ms, 0621ms total)
T0490 000:691 JLINK_WriteMem(0x20000000, 0x0140 Bytes, ...) - Data: 00 BE 0A E0 0D 78 2D 06 68 40 08 24 40 00 00 D3 ... -- CPU_WriteMem(320 bytes @ 0x20000000)  returns 0x140 (0005ms, 0626ms total)
T0490 000:696 JLINK_WriteReg(R0, 0x08000000)  returns 0x00 (0000ms, 0626ms total)
T0490 000:696 JLINK_WriteReg(R1, 0x01E84800)  returns 0x00 (0000ms, 0626ms total)
T0490 000:696 JLINK_WriteReg(R2, 0x00000001)  returns 0x00 (0000ms, 0626ms total)
T0490 000:696 JLINK_WriteReg(R3, 0x00000000)  returns 0x00 (0000ms, 0626ms total)
T0490 000:696 JLINK_WriteReg(R4, 0x00000000)  returns 0x00 (0000ms, 0626ms total)
T0490 000:696 JLINK_WriteReg(R5, 0x00000000)  returns 0x00 (0000ms, 0626ms total)
T0490 000:696 JLINK_WriteReg(R6, 0x00000000)  returns 0x00 (0000ms, 0626ms total)
T0490 000:696 JLINK_WriteReg(R7, 0x00000000)  returns 0x00 (0000ms, 0626ms total)
T0490 000:696 JLINK_WriteReg(R8, 0x00000000)  returns 0x00 (0000ms, 0626ms total)
T0490 000:696 JLINK_WriteReg(R9, 0x2000013C)  returns 0x00 (0000ms, 0626ms total)
T0490 000:696 JLINK_WriteReg(R10, 0x00000000)  returns 0x00 (0000ms, 0626ms total)
T0490 000:696 JLINK_WriteReg(R11, 0x00000000)  returns 0x00 (0000ms, 0626ms total)
T0490 000:696 JLINK_WriteReg(R12, 0x00000000)  returns 0x00 (0000ms, 0626ms total)
T0490 000:696 JLINK_WriteReg(R13 (SP), 0x20001000)  returns 0x00 (0000ms, 0626ms total)
T0490 000:696 JLINK_WriteReg(R14, 0x20000001)  returns 0x00 (0000ms, 0626ms total)
T0490 000:696 JLINK_WriteReg(R15 (PC), 0x20000020)  returns 0x00 (0000ms, 0626ms total)
T0490 000:696 JLINK_WriteReg(XPSR, 0x01000000)  returns 0x00 (0000ms, 0626ms total)
T0490 000:696 JLINK_WriteReg(MSP, 0x20001000)  returns 0x00 (0000ms, 0626ms total)
T0490 000:696 JLINK_WriteReg(PSP, 0x20001000)  returns 0x00 (0000ms, 0626ms total)
T0490 000:696 JLINK_WriteReg(CFBP, 0x00000000)  returns 0x00 (0000ms, 0626ms total)
T0490 000:696 JLINK_SetBPEx(Addr = 0x20000000, Type = 0xFFFFFFF2) -- CPU_ReadMem(2 bytes @ 0x20000000)  returns 0x00000001 (0001ms, 0627ms total)
T0490 000:697 JLINK_Go() -- CPU_WriteMem(2 bytes @ 0x20000000) -- CPU_ReadMem(4 bytes @ 0xE0001000) -- CPU_WriteMem(4 bytes @ 0xE0001000) -- CPU_WriteMem(4 bytes @ 0xE0002008) -- CPU_WriteMem(4 bytes @ 0xE000200C) -- CPU_WriteMem(4 bytes @ 0xE0002010) -- CPU_WriteMem(4 bytes @ 0xE0002014) -- CPU_WriteMem(4 bytes @ 0xE0001004) (0010ms, 0637ms total)
T0490 000:707 JLINK_IsHalted() -- CPU_ReadMem(2 bytes @ 0x20000000)  returns TRUE (0005ms, 0642ms total)
T0490 000:712 JLINK_ReadReg(R15 (PC))  returns 0x20000000 (0000ms, 0637ms total)
T0490 000:712 JLINK_ClrBPEx(BPHandle = 0x00000001)  returns 0x00 (0000ms, 0637ms total)
T0490 000:712 JLINK_ReadReg(R0)  returns 0x00000000 (0000ms, 0637ms total)
T0490 000:712 JLINK_WriteReg(R0, 0x08000000)  returns 0x00 (0000ms, 0637ms total)
T0490 000:712 JLINK_WriteReg(R1, 0x00000080)  returns 0x00 (0000ms, 0637ms total)
T0490 000:712 JLINK_WriteReg(R2, 0x00000000)  returns 0x00 (0000ms, 0637ms total)
T0490 000:712 JLINK_WriteReg(R3, 0x00000000)  returns 0x00 (0000ms, 0637ms total)
T0490 000:712 JLINK_WriteReg(R4, 0x00000000)  returns 0x00 (0000ms, 0637ms total)
T0490 000:712 JLINK_WriteReg(R5, 0x00000000)  returns 0x00 (0000ms, 0637ms total)
T0490 000:712 JLINK_WriteReg(R6, 0x00000000)  returns 0x00 (0000ms, 0637ms total)
T0490 000:712 JLINK_WriteReg(R7, 0x00000000)  returns 0x00 (0000ms, 0637ms total)
T0490 000:712 JLINK_WriteReg(R8, 0x00000000)  returns 0x00 (0000ms, 0637ms total)
T0490 000:712 JLINK_WriteReg(R9, 0x2000013C)  returns 0x00 (0001ms, 0638ms total)
T0490 000:713 JLINK_WriteReg(R10, 0x00000000)  returns 0x00 (0000ms, 0638ms total)
T0490 000:713 JLINK_WriteReg(R11, 0x00000000)  returns 0x00 (0000ms, 0638ms total)
T0490 000:713 JLINK_WriteReg(R12, 0x00000000)  returns 0x00 (0000ms, 0638ms total)
T0490 000:713 JLINK_WriteReg(R13 (SP), 0x20001000)  returns 0x00 (0000ms, 0638ms total)
T0490 000:713 JLINK_WriteReg(R14, 0x20000001)  returns 0x00 (0000ms, 0638ms total)
T0490 000:713 JLINK_WriteReg(R15 (PC), 0x200000B0)  returns 0x00 (0000ms, 0638ms total)
T0490 000:713 JLINK_WriteReg(XPSR, 0x01000000)  returns 0x00 (0000ms, 0638ms total)
T0490 000:713 JLINK_WriteReg(MSP, 0x20001000)  returns 0x00 (0000ms, 0638ms total)
T0490 000:713 JLINK_WriteReg(PSP, 0x20001000)  returns 0x00 (0000ms, 0638ms total)
T0490 000:713 JLINK_WriteReg(CFBP, 0x00000000)  returns 0x00 (0000ms, 0638ms total)
T0490 000:713 JLINK_SetBPEx(Addr = 0x20000000, Type = 0xFFFFFFF2)  returns 0x00000002 (0000ms, 0638ms total)
T0490 000:713 JLINK_Go() -- CPU_ReadMem(4 bytes @ 0xE0001000) -- CPU_WriteMem(4 bytes @ 0xE0001000) (0005ms, 0643ms total)
T0490 000:718 JLINK_IsHalted() -- CPU_ReadMem(2 bytes @ 0x20000000)  returns TRUE (0005ms, 0648ms total)
T0490 000:723 JLINK_ReadReg(R15 (PC))  returns 0x20000000 (0000ms, 0643ms total)
T0490 000:723 JLINK_ClrBPEx(BPHandle = 0x00000002)  returns 0x00 (0000ms, 0643ms total)
T0490 000:723 JLINK_ReadReg(R0)  returns 0x00000001 (0000ms, 0643ms total)
T0490 000:723 JLINK_WriteReg(R0, 0x08000000)  returns 0x00 (0000ms, 0643ms total)
T0490 000:723 JLINK_WriteReg(R1, 0x00000080)  returns 0x00 (0000ms, 0643ms total)
T0490 000:723 JLINK_WriteReg(R2, 0x00000000)  returns 0x00 (0000ms, 0643ms total)
T0490 000:723 JLINK_WriteReg(R3, 0x00000000)  returns 0x00 (0000ms, 0643ms total)
T0490 000:723 JLINK_WriteReg(R4, 0x00000000)  returns 0x00 (0000ms, 0643ms total)
T0490 000:723 JLINK_WriteReg(R5, 0x00000000)  returns 0x00 (0000ms, 0643ms total)
T0490 000:723 JLINK_WriteReg(R6, 0x00000000)  returns 0x00 (0000ms, 0643ms total)
T0490 000:723 JLINK_WriteReg(R7, 0x00000000)  returns 0x00 (0000ms, 0643ms total)
T0490 000:723 JLINK_WriteReg(R8, 0x00000000)  returns 0x00 (0000ms, 0643ms total)
T0490 000:723 JLINK_WriteReg(R9, 0x2000013C)  returns 0x00 (0000ms, 0643ms total)
T0490 000:723 JLINK_WriteReg(R10, 0x00000000)  returns 0x00 (0000ms, 0643ms total)
T0490 000:723 JLINK_WriteReg(R11, 0x00000000)  returns 0x00 (0000ms, 0643ms total)
T0490 000:723 JLINK_WriteReg(R12, 0x00000000)  returns 0x00 (0000ms, 0643ms total)
T0490 000:723 JLINK_WriteReg(R13 (SP), 0x20001000)  returns 0x00 (0000ms, 0643ms total)
T0490 000:723 JLINK_WriteReg(R14, 0x20000001)  returns 0x00 (0000ms, 0643ms total)
T0490 000:723 JLINK_WriteReg(R15 (PC), 0x2000007A)  returns 0x00 (0000ms, 0643ms total)
T0490 000:723 JLINK_WriteReg(XPSR, 0x01000000)  returns 0x00 (0000ms, 0643ms total)
T0490 000:723 JLINK_WriteReg(MSP, 0x20001000)  returns 0x00 (0000ms, 0643ms total)
T0490 000:723 JLINK_WriteReg(PSP, 0x20001000)  returns 0x00 (0000ms, 0643ms total)
T0490 000:723 JLINK_WriteReg(CFBP, 0x00000000)  returns 0x00 (0000ms, 0643ms total)
T0490 000:723 JLINK_SetBPEx(Addr = 0x20000000, Type = 0xFFFFFFF2)  returns 0x00000003 (0000ms, 0643ms total)
T0490 000:723 JLINK_Go() -- CPU_ReadMem(4 bytes @ 0xE0001000) -- CPU_WriteMem(4 bytes @ 0xE0001000) (0004ms, 0647ms total)
T0490 000:727 JLINK_IsHalted()  returns FALSE (0001ms, 0648ms total)
T0490 000:760 JLINK_IsHalted() -- CPU_ReadMem(2 bytes @ 0x20000000)  returns TRUE (0005ms, 0652ms total)
T0490 000:765 JLINK_ReadReg(R15 (PC))  returns 0x20000000 (0000ms, 0647ms total)
T0490 000:765 JLINK_ClrBPEx(BPHandle = 0x00000003)  returns 0x00 (0000ms, 0647ms total)
T0490 000:765 JLINK_ReadReg(R0)  returns 0x00000000 (0000ms, 0647ms total)
T0490 000:765 JLINK_WriteReg(R0, 0x08000080)  returns 0x00 (0000ms, 0647ms total)
T0490 000:765 JLINK_WriteReg(R1, 0x00000080)  returns 0x00 (0000ms, 0647ms total)
T0490 000:765 JLINK_WriteReg(R2, 0x00000000)  returns 0x00 (0000ms, 0647ms total)
T0490 000:765 JLINK_WriteReg(R3, 0x00000000)  returns 0x00 (0000ms, 0647ms total)
T0490 000:765 JLINK_WriteReg(R4, 0x00000000)  returns 0x00 (0000ms, 0647ms total)
T0490 000:765 JLINK_WriteReg(R5, 0x00000000)  returns 0x00 (0000ms, 0647ms total)
T0490 000:765 JLINK_WriteReg(R6, 0x00000000)  returns 0x00 (0000ms, 0647ms total)
T0490 000:765 JLINK_WriteReg(R7, 0x00000000)  returns 0x00 (0000ms, 0647ms total)
T0490 000:765 JLINK_WriteReg(R8, 0x00000000)  returns 0x00 (0000ms, 0647ms total)
T0490 000:765 JLINK_WriteReg(R9, 0x2000013C)  returns 0x00 (0000ms, 0647ms total)
T0490 000:765 JLINK_WriteReg(R10, 0x00000000)  returns 0x00 (0001ms, 0648ms total)
T0490 000:766 JLINK_WriteReg(R11, 0x00000000)  returns 0x00 (0000ms, 0648ms total)
T0490 000:766 JLINK_WriteReg(R12, 0x00000000)  returns 0x00 (0000ms, 0648ms total)
T0490 000:766 JLINK_WriteReg(R13 (SP), 0x20001000)  returns 0x00 (0000ms, 0648ms total)
T0490 000:766 JLINK_WriteReg(R14, 0x20000001)  returns 0x00 (0000ms, 0648ms total)
T0490 000:766 JLINK_WriteReg(R15 (PC), 0x200000B0)  returns 0x00 (0000ms, 0648ms total)
T0490 000:766 JLINK_WriteReg(XPSR, 0x01000000)  returns 0x00 (0000ms, 0648ms total)
T0490 000:766 JLINK_WriteReg(MSP, 0x20001000)  returns 0x00 (0000ms, 0648ms total)
T0490 000:766 JLINK_WriteReg(PSP, 0x20001000)  returns 0x00 (0000ms, 0648ms total)
T0490 000:766 JLINK_WriteReg(CFBP, 0x00000000)  returns 0x00 (0000ms, 0648ms total)
T0490 000:766 JLINK_SetBPEx(Addr = 0x20000000, Type = 0xFFFFFFF2)  returns 0x00000004 (0000ms, 0648ms total)
T0490 000:766 JLINK_Go() -- CPU_ReadMem(4 bytes @ 0xE0001000) -- CPU_WriteMem(4 bytes @ 0xE0001000) (0005ms, 0653ms total)
T0490 000:771 JLINK_IsHalted() -- CPU_ReadMem(2 bytes @ 0x20000000)  returns TRUE (0005ms, 0658ms total)
T0490 000:776 JLINK_ReadReg(R15 (PC))  returns 0x20000000 (0000ms, 0653ms total)
T0490 000:776 JLINK_ClrBPEx(BPHandle = 0x00000004)  returns 0x00 (0000ms, 0653ms total)
T0490 000:776 JLINK_ReadReg(R0)  returns 0x00000001 (0000ms, 0653ms total)
T0490 000:776 JLINK_WriteReg(R0, 0x08000080)  returns 0x00 (0000ms, 0653ms total)
T0490 000:776 JLINK_WriteReg(R1, 0x00000080)  returns 0x00 (0000ms, 0653ms total)
T0490 000:776 JLINK_WriteReg(R2, 0x00000000)  returns 0x00 (0000ms, 0653ms total)
T0490 000:776 JLINK_WriteReg(R3, 0x00000000)  returns 0x00 (0000ms, 0653ms total)
T0490 000:776 JLINK_WriteReg(R4, 0x00000000)  returns 0x00 (0000ms, 0653ms total)
T0490 000:776 JLINK_WriteReg(R5, 0x00000000)  returns 0x00 (0000ms, 0653ms total)
T0490 000:776 JLINK_WriteReg(R6, 0x00000000)  returns 0x00 (0000ms, 0653ms total)
T0490 000:776 JLINK_WriteReg(R7, 0x00000000)  returns 0x00 (0000ms, 0653ms total)
T0490 000:776 JLINK_WriteReg(R8, 0x00000000)  returns 0x00 (0000ms, 0653ms total)
T0490 000:776 JLINK_WriteReg(R9, 0x2000013C)  returns 0x00 (0000ms, 0653ms total)
T0490 000:776 JLINK_WriteReg(R10, 0x00000000)  returns 0x00 (0000ms, 0653ms total)
T0490 000:776 JLINK_WriteReg(R11, 0x00000000)  returns 0x00 (0000ms, 0653ms total)
T0490 000:776 JLINK_WriteReg(R12, 0x00000000)  returns 0x00 (0000ms, 0653ms total)
T0490 000:776 JLINK_WriteReg(R13 (SP), 0x20001000)  returns 0x00 (0000ms, 0653ms total)
T0490 000:776 JLINK_WriteReg(R14, 0x20000001)  returns 0x00 (0000ms, 0653ms total)
T0490 000:776 JLINK_WriteReg(R15 (PC), 0x2000007A)  returns 0x00 (0000ms, 0653ms total)
T0490 000:776 JLINK_WriteReg(XPSR, 0x01000000)  returns 0x00 (0000ms, 0653ms total)
T0490 000:776 JLINK_WriteReg(MSP, 0x20001000)  returns 0x00 (0000ms, 0653ms total)
T0490 000:776 JLINK_WriteReg(PSP, 0x20001000)  returns 0x00 (0000ms, 0653ms total)
T0490 000:776 JLINK_WriteReg(CFBP, 0x00000000)  returns 0x00 (0000ms, 0653ms total)
T0490 000:776 JLINK_SetBPEx(Addr = 0x20000000, Type = 0xFFFFFFF2)  returns 0x00000005 (0000ms, 0653ms total)
T0490 000:776 JLINK_Go() -- CPU_ReadMem(4 bytes @ 0xE0001000) -- CPU_WriteMem(4 bytes @ 0xE0001000) (0004ms, 0657ms total)
T0490 000:780 JLINK_IsHalted()  returns FALSE (0001ms, 0658ms total)
T0490 000:782 JLINK_IsHalted()  returns FALSE (0000ms, 0657ms total)
T0490 000:783 JLINK_IsHalted()  returns FALSE (0000ms, 0657ms total)
T0490 000:784 JLINK_IsHalted() -- CPU_ReadMem(2 bytes @ 0x20000000)  returns TRUE (0004ms, 0661ms total)
T0490 000:788 JLINK_ReadReg(R15 (PC))  returns 0x20000000 (0000ms, 0657ms total)
T0490 000:788 JLINK_ClrBPEx(BPHandle = 0x00000005)  returns 0x00 (0000ms, 0657ms total)
T0490 000:788 JLINK_ReadReg(R0)  returns 0x00000000 (0000ms, 0657ms total)
T0490 000:788 JLINK_WriteReg(R0, 0x08000100)  returns 0x00 (0000ms, 0657ms total)
T0490 000:788 JLINK_WriteReg(R1, 0x00000080)  returns 0x00 (0000ms, 0657ms total)
T0490 000:788 JLINK_WriteReg(R2, 0x00000000)  returns 0x00 (0000ms, 0657ms total)
T0490 000:788 JLINK_WriteReg(R3, 0x00000000)  returns 0x00 (0001ms, 0658ms total)
T0490 000:789 JLINK_WriteReg(R4, 0x00000000)  returns 0x00 (0000ms, 0658ms total)
T0490 000:789 JLINK_WriteReg(R5, 0x00000000)  returns 0x00 (0000ms, 0658ms total)
T0490 000:789 JLINK_WriteReg(R6, 0x00000000)  returns 0x00 (0000ms, 0658ms total)
T0490 000:789 JLINK_WriteReg(R7, 0x00000000)  returns 0x00 (0000ms, 0658ms total)
T0490 000:789 JLINK_WriteReg(R8, 0x00000000)  returns 0x00 (0000ms, 0658ms total)
T0490 000:789 JLINK_WriteReg(R9, 0x2000013C)  returns 0x00 (0000ms, 0658ms total)
T0490 000:789 JLINK_WriteReg(R10, 0x00000000)  returns 0x00 (0000ms, 0658ms total)
T0490 000:789 JLINK_WriteReg(R11, 0x00000000)  returns 0x00 (0000ms, 0658ms total)
T0490 000:789 JLINK_WriteReg(R12, 0x00000000)  returns 0x00 (0000ms, 0658ms total)
T0490 000:789 JLINK_WriteReg(R13 (SP), 0x20001000)  returns 0x00 (0000ms, 0658ms total)
T0490 000:789 JLINK_WriteReg(R14, 0x20000001)  returns 0x00 (0000ms, 0658ms total)
T0490 000:789 JLINK_WriteReg(R15 (PC), 0x200000B0)  returns 0x00 (0000ms, 0658ms total)
T0490 000:789 JLINK_WriteReg(XPSR, 0x01000000)  returns 0x00 (0000ms, 0658ms total)
T0490 000:789 JLINK_WriteReg(MSP, 0x20001000)  returns 0x00 (0000ms, 0658ms total)
T0490 000:789 JLINK_WriteReg(PSP, 0x20001000)  returns 0x00 (0000ms, 0658ms total)
T0490 000:789 JLINK_WriteReg(CFBP, 0x00000000)  returns 0x00 (0000ms, 0658ms total)
T0490 000:789 JLINK_SetBPEx(Addr = 0x20000000, Type = 0xFFFFFFF2)  returns 0x00000006 (0000ms, 0658ms total)
T0490 000:789 JLINK_Go() -- CPU_ReadMem(4 bytes @ 0xE0001000) -- CPU_WriteMem(4 bytes @ 0xE0001000) (0004ms, 0662ms total)
T0490 000:793 JLINK_IsHalted() -- CPU_ReadMem(2 bytes @ 0x20000000)  returns TRUE (0005ms, 0667ms total)
T0490 000:798 JLINK_ReadReg(R15 (PC))  returns 0x20000000 (0000ms, 0662ms total)
T0490 000:798 JLINK_ClrBPEx(BPHandle = 0x00000006)  returns 0x00 (0000ms, 0662ms total)
T0490 000:798 JLINK_ReadReg(R0)  returns 0x00000001 (0000ms, 0662ms total)
T0490 000:798 JLINK_WriteReg(R0, 0x08000100)  returns 0x00 (0000ms, 0662ms total)
T0490 000:798 JLINK_WriteReg(R1, 0x00000080)  returns 0x00 (0000ms, 0662ms total)
T0490 000:798 JLINK_WriteReg(R2, 0x00000000)  returns 0x00 (0000ms, 0662ms total)
T0490 000:798 JLINK_WriteReg(R3, 0x00000000)  returns 0x00 (0000ms, 0662ms total)
T0490 000:798 JLINK_WriteReg(R4, 0x00000000)  returns 0x00 (0000ms, 0662ms total)
T0490 000:798 JLINK_WriteReg(R5, 0x00000000)  returns 0x00 (0000ms, 0662ms total)
T0490 000:798 JLINK_WriteReg(R6, 0x00000000)  returns 0x00 (0000ms, 0662ms total)
T0490 000:798 JLINK_WriteReg(R7, 0x00000000)  returns 0x00 (0000ms, 0662ms total)
T0490 000:798 JLINK_WriteReg(R8, 0x00000000)  returns 0x00 (0000ms, 0662ms total)
T0490 000:798 JLINK_WriteReg(R9, 0x2000013C)  returns 0x00 (0000ms, 0662ms total)
T0490 000:798 JLINK_WriteReg(R10, 0x00000000)  returns 0x00 (0000ms, 0662ms total)
T0490 000:798 JLINK_WriteReg(R11, 0x00000000)  returns 0x00 (0000ms, 0662ms total)
T0490 000:798 JLINK_WriteReg(R12, 0x00000000)  returns 0x00 (0000ms, 0662ms total)
T0490 000:798 JLINK_WriteReg(R13 (SP), 0x20001000)  returns 0x00 (0000ms, 0662ms total)
T0490 000:798 JLINK_WriteReg(R14, 0x20000001)  returns 0x00 (0000ms, 0662ms total)
T0490 000:798 JLINK_WriteReg(R15 (PC), 0x2000007A)  returns 0x00 (0000ms, 0662ms total)
T0490 000:798 JLINK_WriteReg(XPSR, 0x01000000)  returns 0x00 (0000ms, 0662ms total)
T0490 000:798 JLINK_WriteReg(MSP, 0x20001000)  returns 0x00 (0000ms, 0662ms total)
T0490 000:798 JLINK_WriteReg(PSP, 0x20001000)  returns 0x00 (0000ms, 0662ms total)
T0490 000:798 JLINK_WriteReg(CFBP, 0x00000000)  returns 0x00 (0000ms, 0662ms total)
T0490 000:798 JLINK_SetBPEx(Addr = 0x20000000, Type = 0xFFFFFFF2)  returns 0x00000007 (0000ms, 0662ms total)
T0490 000:798 JLINK_Go() -- CPU_ReadMem(4 bytes @ 0xE0001000) -- CPU_WriteMem(4 bytes @ 0xE0001000) (0004ms, 0666ms total)
T0490 000:802 JLINK_IsHalted()  returns FALSE (0001ms, 0667ms total)
T0490 000:814 JLINK_IsHalted() -- CPU_ReadMem(2 bytes @ 0x20000000)  returns TRUE (0005ms, 0671ms total)
T0490 000:819 JLINK_ReadReg(R15 (PC))  returns 0x20000000 (0000ms, 0666ms total)
T0490 000:819 JLINK_ClrBPEx(BPHandle = 0x00000007)  returns 0x00 (0000ms, 0666ms total)
T0490 000:819 JLINK_ReadReg(R0)  returns 0x00000000 (0000ms, 0666ms total)
T0490 000:819 JLINK_WriteReg(R0, 0x08000180)  returns 0x00 (0000ms, 0666ms total)
T0490 000:819 JLINK_WriteReg(R1, 0x00000080)  returns 0x00 (0000ms, 0666ms total)
T0490 000:819 JLINK_WriteReg(R2, 0x00000000)  returns 0x00 (0000ms, 0666ms total)
T0490 000:819 JLINK_WriteReg(R3, 0x00000000)  returns 0x00 (0000ms, 0666ms total)
T0490 000:819 JLINK_WriteReg(R4, 0x00000000)  returns 0x00 (0000ms, 0666ms total)
T0490 000:819 JLINK_WriteReg(R5, 0x00000000)  returns 0x00 (0000ms, 0666ms total)
T0490 000:819 JLINK_WriteReg(R6, 0x00000000)  returns 0x00 (0000ms, 0666ms total)
T0490 000:819 JLINK_WriteReg(R7, 0x00000000)  returns 0x00 (0000ms, 0666ms total)
T0490 000:819 JLINK_WriteReg(R8, 0x00000000)  returns 0x00 (0000ms, 0666ms total)
T0490 000:819 JLINK_WriteReg(R9, 0x2000013C)  returns 0x00 (0000ms, 0666ms total)
T0490 000:819 JLINK_WriteReg(R10, 0x00000000)  returns 0x00 (0000ms, 0666ms total)
T0490 000:819 JLINK_WriteReg(R11, 0x00000000)  returns 0x00 (0000ms, 0666ms total)
T0490 000:819 JLINK_WriteReg(R12, 0x00000000)  returns 0x00 (0000ms, 0666ms total)
T0490 000:819 JLINK_WriteReg(R13 (SP), 0x20001000)  returns 0x00 (0000ms, 0666ms total)
T0490 000:819 JLINK_WriteReg(R14, 0x20000001)  returns 0x00 (0000ms, 0666ms total)
T0490 000:819 JLINK_WriteReg(R15 (PC), 0x200000B0)  returns 0x00 (0000ms, 0666ms total)
T0490 000:819 JLINK_WriteReg(XPSR, 0x01000000)  returns 0x00 (0000ms, 0666ms total)
T0490 000:819 JLINK_WriteReg(MSP, 0x20001000)  returns 0x00 (0000ms, 0666ms total)
T0490 000:819 JLINK_WriteReg(PSP, 0x20001000)  returns 0x00 (0000ms, 0666ms total)
T0490 000:819 JLINK_WriteReg(CFBP, 0x00000000)  returns 0x00 (0000ms, 0666ms total)
T0490 000:820 JLINK_SetBPEx(Addr = 0x20000000, Type = 0xFFFFFFF2)  returns 0x00000008 (0000ms, 0666ms total)
T0490 000:820 JLINK_Go() -- CPU_ReadMem(4 bytes @ 0xE0001000) -- CPU_WriteMem(4 bytes @ 0xE0001000) (0004ms, 0670ms total)
T0490 000:824 JLINK_IsHalted() -- CPU_ReadMem(2 bytes @ 0x20000000)  returns TRUE (0005ms, 0675ms total)
T0490 000:829 JLINK_ReadReg(R15 (PC))  returns 0x20000000 (0000ms, 0670ms total)
T0490 000:829 JLINK_ClrBPEx(BPHandle = 0x00000008)  returns 0x00 (0000ms, 0670ms total)
T0490 000:829 JLINK_ReadReg(R0)  returns 0x00000001 (0000ms, 0670ms total)
T0490 000:829 JLINK_WriteReg(R0, 0x08000180)  returns 0x00 (0000ms, 0670ms total)
T0490 000:829 JLINK_WriteReg(R1, 0x00000080)  returns 0x00 (0000ms, 0670ms total)
T0490 000:829 JLINK_WriteReg(R2, 0x00000000)  returns 0x00 (0000ms, 0670ms total)
T0490 000:829 JLINK_WriteReg(R3, 0x00000000)  returns 0x00 (0000ms, 0670ms total)
T0490 000:829 JLINK_WriteReg(R4, 0x00000000)  returns 0x00 (0000ms, 0670ms total)
T0490 000:829 JLINK_WriteReg(R5, 0x00000000)  returns 0x00 (0000ms, 0670ms total)
T0490 000:829 JLINK_WriteReg(R6, 0x00000000)  returns 0x00 (0000ms, 0670ms total)
T0490 000:829 JLINK_WriteReg(R7, 0x00000000)  returns 0x00 (0000ms, 0670ms total)
T0490 000:829 JLINK_WriteReg(R8, 0x00000000)  returns 0x00 (0000ms, 0670ms total)
T0490 000:829 JLINK_WriteReg(R9, 0x2000013C)  returns 0x00 (0000ms, 0670ms total)
T0490 000:829 JLINK_WriteReg(R10, 0x00000000)  returns 0x00 (0000ms, 0670ms total)
T0490 000:829 JLINK_WriteReg(R11, 0x00000000)  returns 0x00 (0000ms, 0670ms total)
T0490 000:829 JLINK_WriteReg(R12, 0x00000000)  returns 0x00 (0000ms, 0670ms total)
T0490 000:829 JLINK_WriteReg(R13 (SP), 0x20001000)  returns 0x00 (0000ms, 0670ms total)
T0490 000:829 JLINK_WriteReg(R14, 0x20000001)  returns 0x00 (0000ms, 0670ms total)
T0490 000:829 JLINK_WriteReg(R15 (PC), 0x2000007A)  returns 0x00 (0000ms, 0670ms total)
T0490 000:829 JLINK_WriteReg(XPSR, 0x01000000)  returns 0x00 (0000ms, 0670ms total)
T0490 000:829 JLINK_WriteReg(MSP, 0x20001000)  returns 0x00 (0000ms, 0670ms total)
T0490 000:829 JLINK_WriteReg(PSP, 0x20001000)  returns 0x00 (0000ms, 0670ms total)
T0490 000:829 JLINK_WriteReg(CFBP, 0x00000000)  returns 0x00 (0000ms, 0670ms total)
T0490 000:829 JLINK_SetBPEx(Addr = 0x20000000, Type = 0xFFFFFFF2)  returns 0x00000009 (0000ms, 0670ms total)
T0490 000:829 JLINK_Go() -- CPU_ReadMem(4 bytes @ 0xE0001000) -- CPU_WriteMem(4 bytes @ 0xE0001000) (0004ms, 0674ms total)
T0490 000:833 JLINK_IsHalted()  returns FALSE (0001ms, 0675ms total)
T0490 000:836 JLINK_IsHalted() -- CPU_ReadMem(2 bytes @ 0x20000000)  returns TRUE (0005ms, 0679ms total)
T0490 000:841 JLINK_ReadReg(R15 (PC))  returns 0x20000000 (0000ms, 0674ms total)
T0490 000:841 JLINK_ClrBPEx(BPHandle = 0x00000009)  returns 0x00 (0000ms, 0674ms total)
T0490 000:841 JLINK_ReadReg(R0)  returns 0x00000000 (0000ms, 0674ms total)
T0490 000:841 JLINK_WriteReg(R0, 0x08000200)  returns 0x00 (0000ms, 0674ms total)
T0490 000:841 JLINK_WriteReg(R1, 0x00000080)  returns 0x00 (0000ms, 0674ms total)
T0490 000:841 JLINK_WriteReg(R2, 0x00000000)  returns 0x00 (0000ms, 0674ms total)
T0490 000:841 JLINK_WriteReg(R3, 0x00000000)  returns 0x00 (0000ms, 0674ms total)
T0490 000:841 JLINK_WriteReg(R4, 0x00000000)  returns 0x00 (0000ms, 0674ms total)
T0490 000:841 JLINK_WriteReg(R5, 0x00000000)  returns 0x00 (0000ms, 0674ms total)
T0490 000:841 JLINK_WriteReg(R6, 0x00000000)  returns 0x00 (0000ms, 0674ms total)
T0490 000:841 JLINK_WriteReg(R7, 0x00000000)  returns 0x00 (0000ms, 0674ms total)
T0490 000:841 JLINK_WriteReg(R8, 0x00000000)  returns 0x00 (0000ms, 0674ms total)
T0490 000:841 JLINK_WriteReg(R9, 0x2000013C)  returns 0x00 (0000ms, 0674ms total)
T0490 000:841 JLINK_WriteReg(R10, 0x00000000)  returns 0x00 (0000ms, 0674ms total)
T0490 000:841 JLINK_WriteReg(R11, 0x00000000)  returns 0x00 (0000ms, 0674ms total)
T0490 000:841 JLINK_WriteReg(R12, 0x00000000)  returns 0x00 (0000ms, 0674ms total)
T0490 000:841 JLINK_WriteReg(R13 (SP), 0x20001000)  returns 0x00 (0000ms, 0674ms total)
T0490 000:841 JLINK_WriteReg(R14, 0x20000001)  returns 0x00 (0000ms, 0674ms total)
T0490 000:841 JLINK_WriteReg(R15 (PC), 0x200000B0)  returns 0x00 (0000ms, 0674ms total)
T0490 000:841 JLINK_WriteReg(XPSR, 0x01000000)  returns 0x00 (0000ms, 0674ms total)
T0490 000:841 JLINK_WriteReg(MSP, 0x20001000)  returns 0x00 (0000ms, 0674ms total)
T0490 000:841 JLINK_WriteReg(PSP, 0x20001000)  returns 0x00 (0000ms, 0674ms total)
T0490 000:841 JLINK_WriteReg(CFBP, 0x00000000)  returns 0x00 (0000ms, 0674ms total)
T0490 000:841 JLINK_SetBPEx(Addr = 0x20000000, Type = 0xFFFFFFF2)  returns 0x0000000A (0000ms, 0674ms total)
T0490 000:841 JLINK_Go() -- CPU_ReadMem(4 bytes @ 0xE0001000) -- CPU_WriteMem(4 bytes @ 0xE0001000) (0005ms, 0679ms total)
T0490 000:846 JLINK_IsHalted() -- CPU_ReadMem(2 bytes @ 0x20000000)  returns TRUE (0004ms, 0683ms total)
T0490 000:850 JLINK_ReadReg(R15 (PC))  returns 0x20000000 (0000ms, 0679ms total)
T0490 000:850 JLINK_ClrBPEx(BPHandle = 0x0000000A)  returns 0x00 (0000ms, 0679ms total)
T0490 000:850 JLINK_ReadReg(R0)  returns 0x00000001 (0000ms, 0679ms total)
T0490 000:851 JLINK_WriteReg(R0, 0x08000200)  returns 0x00 (0000ms, 0680ms total)
T0490 000:851 JLINK_WriteReg(R1, 0x00000080)  returns 0x00 (0000ms, 0680ms total)
T0490 000:851 JLINK_WriteReg(R2, 0x00000000)  returns 0x00 (0000ms, 0680ms total)
T0490 000:851 JLINK_WriteReg(R3, 0x00000000)  returns 0x00 (0000ms, 0680ms total)
T0490 000:851 JLINK_WriteReg(R4, 0x00000000)  returns 0x00 (0000ms, 0680ms total)
T0490 000:851 JLINK_WriteReg(R5, 0x00000000)  returns 0x00 (0000ms, 0680ms total)
T0490 000:851 JLINK_WriteReg(R6, 0x00000000)  returns 0x00 (0000ms, 0680ms total)
T0490 000:851 JLINK_WriteReg(R7, 0x00000000)  returns 0x00 (0000ms, 0680ms total)
T0490 000:851 JLINK_WriteReg(R8, 0x00000000)  returns 0x00 (0000ms, 0680ms total)
T0490 000:851 JLINK_WriteReg(R9, 0x2000013C)  returns 0x00 (0000ms, 0680ms total)
T0490 000:851 JLINK_WriteReg(R10, 0x00000000)  returns 0x00 (0000ms, 0680ms total)
T0490 000:851 JLINK_WriteReg(R11, 0x00000000)  returns 0x00 (0000ms, 0680ms total)
T0490 000:851 JLINK_WriteReg(R12, 0x00000000)  returns 0x00 (0000ms, 0680ms total)
T0490 000:851 JLINK_WriteReg(R13 (SP), 0x20001000)  returns 0x00 (0000ms, 0680ms total)
T0490 000:851 JLINK_WriteReg(R14, 0x20000001)  returns 0x00 (0000ms, 0680ms total)
T0490 000:851 JLINK_WriteReg(R15 (PC), 0x2000007A)  returns 0x00 (0000ms, 0680ms total)
T0490 000:851 JLINK_WriteReg(XPSR, 0x01000000)  returns 0x00 (0000ms, 0680ms total)
T0490 000:851 JLINK_WriteReg(MSP, 0x20001000)  returns 0x00 (0000ms, 0680ms total)
T0490 000:851 JLINK_WriteReg(PSP, 0x20001000)  returns 0x00 (0000ms, 0680ms total)
T0490 000:851 JLINK_WriteReg(CFBP, 0x00000000)  returns 0x00 (0000ms, 0680ms total)
T0490 000:851 JLINK_SetBPEx(Addr = 0x20000000, Type = 0xFFFFFFF2)  returns 0x0000000B (0000ms, 0680ms total)
T0490 000:851 JLINK_Go() -- CPU_ReadMem(4 bytes @ 0xE0001000) -- CPU_WriteMem(4 bytes @ 0xE0001000) (0003ms, 0683ms total)
T0490 000:854 JLINK_IsHalted()  returns FALSE (0001ms, 0684ms total)
T0490 000:859 JLINK_IsHalted() -- CPU_ReadMem(2 bytes @ 0x20000000)  returns TRUE (0005ms, 0688ms total)
T0490 000:864 JLINK_ReadReg(R15 (PC))  returns 0x20000000 (0000ms, 0683ms total)
T0490 000:864 JLINK_ClrBPEx(BPHandle = 0x0000000B)  returns 0x00 (0000ms, 0683ms total)
T0490 000:864 JLINK_ReadReg(R0)  returns 0x00000000 (0000ms, 0683ms total)
T0490 000:864 JLINK_WriteReg(R0, 0x08000280)  returns 0x00 (0000ms, 0683ms total)
T0490 000:864 JLINK_WriteReg(R1, 0x00000080)  returns 0x00 (0000ms, 0683ms total)
T0490 000:864 JLINK_WriteReg(R2, 0x00000000)  returns 0x00 (0000ms, 0683ms total)
T0490 000:864 JLINK_WriteReg(R3, 0x00000000)  returns 0x00 (0000ms, 0683ms total)
T0490 000:864 JLINK_WriteReg(R4, 0x00000000)  returns 0x00 (0000ms, 0683ms total)
T0490 000:864 JLINK_WriteReg(R5, 0x00000000)  returns 0x00 (0000ms, 0683ms total)
T0490 000:864 JLINK_WriteReg(R6, 0x00000000)  returns 0x00 (0000ms, 0683ms total)
T0490 000:864 JLINK_WriteReg(R7, 0x00000000)  returns 0x00 (0000ms, 0683ms total)
T0490 000:864 JLINK_WriteReg(R8, 0x00000000)  returns 0x00 (0000ms, 0683ms total)
T0490 000:864 JLINK_WriteReg(R9, 0x2000013C)  returns 0x00 (0000ms, 0683ms total)
T0490 000:864 JLINK_WriteReg(R10, 0x00000000)  returns 0x00 (0000ms, 0683ms total)
T0490 000:864 JLINK_WriteReg(R11, 0x00000000)  returns 0x00 (0000ms, 0683ms total)
T0490 000:864 JLINK_WriteReg(R12, 0x00000000)  returns 0x00 (0000ms, 0683ms total)
T0490 000:864 JLINK_WriteReg(R13 (SP), 0x20001000)  returns 0x00 (0000ms, 0683ms total)
T0490 000:864 JLINK_WriteReg(R14, 0x20000001)  returns 0x00 (0000ms, 0683ms total)
T0490 000:864 JLINK_WriteReg(R15 (PC), 0x200000B0)  returns 0x00 (0000ms, 0683ms total)
T0490 000:864 JLINK_WriteReg(XPSR, 0x01000000)  returns 0x00 (0000ms, 0683ms total)
T0490 000:864 JLINK_WriteReg(MSP, 0x20001000)  returns 0x00 (0000ms, 0683ms total)
T0490 000:864 JLINK_WriteReg(PSP, 0x20001000)  returns 0x00 (0000ms, 0683ms total)
T0490 000:864 JLINK_WriteReg(CFBP, 0x00000000)  returns 0x00 (0000ms, 0683ms total)
T0490 000:864 JLINK_SetBPEx(Addr = 0x20000000, Type = 0xFFFFFFF2)  returns 0x0000000C (0000ms, 0683ms total)
T0490 000:864 JLINK_Go() -- CPU_ReadMem(4 bytes @ 0xE0001000) -- CPU_WriteMem(4 bytes @ 0xE0001000) (0006ms, 0689ms total)
T0490 000:870 JLINK_IsHalted() -- CPU_ReadMem(2 bytes @ 0x20000000)  returns TRUE (0005ms, 0694ms total)
T0490 000:875 JLINK_ReadReg(R15 (PC))  returns 0x20000000 (0000ms, 0689ms total)
T0490 000:875 JLINK_ClrBPEx(BPHandle = 0x0000000C)  returns 0x00 (0000ms, 0689ms total)
T0490 000:875 JLINK_ReadReg(R0)  returns 0x00000001 (0000ms, 0689ms total)
T0490 000:875 JLINK_WriteReg(R0, 0x08000280)  returns 0x00 (0000ms, 0689ms total)
T0490 000:875 JLINK_WriteReg(R1, 0x00000080)  returns 0x00 (0000ms, 0689ms total)
T0490 000:875 JLINK_WriteReg(R2, 0x00000000)  returns 0x00 (0000ms, 0689ms total)
T0490 000:875 JLINK_WriteReg(R3, 0x00000000)  returns 0x00 (0000ms, 0689ms total)
T0490 000:875 JLINK_WriteReg(R4, 0x00000000)  returns 0x00 (0000ms, 0689ms total)
T0490 000:875 JLINK_WriteReg(R5, 0x00000000)  returns 0x00 (0000ms, 0689ms total)
T0490 000:875 JLINK_WriteReg(R6, 0x00000000)  returns 0x00 (0000ms, 0689ms total)
T0490 000:875 JLINK_WriteReg(R7, 0x00000000)  returns 0x00 (0000ms, 0689ms total)
T0490 000:875 JLINK_WriteReg(R8, 0x00000000)  returns 0x00 (0000ms, 0689ms total)
T0490 000:875 JLINK_WriteReg(R9, 0x2000013C)  returns 0x00 (0000ms, 0689ms total)
T0490 000:875 JLINK_WriteReg(R10, 0x00000000)  returns 0x00 (0000ms, 0689ms total)
T0490 000:875 JLINK_WriteReg(R11, 0x00000000)  returns 0x00 (0000ms, 0689ms total)
T0490 000:875 JLINK_WriteReg(R12, 0x00000000)  returns 0x00 (0000ms, 0689ms total)
T0490 000:875 JLINK_WriteReg(R13 (SP), 0x20001000)  returns 0x00 (0000ms, 0689ms total)
T0490 000:875 JLINK_WriteReg(R14, 0x20000001)  returns 0x00 (0000ms, 0689ms total)
T0490 000:875 JLINK_WriteReg(R15 (PC), 0x2000007A)  returns 0x00 (0000ms, 0689ms total)
T0490 000:875 JLINK_WriteReg(XPSR, 0x01000000)  returns 0x00 (0000ms, 0689ms total)
T0490 000:875 JLINK_WriteReg(MSP, 0x20001000)  returns 0x00 (0000ms, 0689ms total)
T0490 000:875 JLINK_WriteReg(PSP, 0x20001000)  returns 0x00 (0000ms, 0689ms total)
T0490 000:875 JLINK_WriteReg(CFBP, 0x00000000)  returns 0x00 (0000ms, 0689ms total)
T0490 000:875 JLINK_SetBPEx(Addr = 0x20000000, Type = 0xFFFFFFF2)  returns 0x0000000D (0000ms, 0689ms total)
T0490 000:875 JLINK_Go() -- CPU_ReadMem(4 bytes @ 0xE0001000) -- CPU_WriteMem(4 bytes @ 0xE0001000) (0004ms, 0693ms total)
T0490 000:879 JLINK_IsHalted()  returns FALSE (0001ms, 0694ms total)
T0490 000:881 JLINK_IsHalted()  returns FALSE (0001ms, 0694ms total)
T0490 000:883 JLINK_IsHalted() -- CPU_ReadMem(2 bytes @ 0x20000000)  returns TRUE (0005ms, 0698ms total)
T0490 000:888 JLINK_ReadReg(R15 (PC))  returns 0x20000000 (0000ms, 0693ms total)
T0490 000:888 JLINK_ClrBPEx(BPHandle = 0x0000000D)  returns 0x00 (0000ms, 0693ms total)
T0490 000:888 JLINK_ReadReg(R0)  returns 0x00000000 (0000ms, 0693ms total)
T0490 000:888 JLINK_WriteReg(R0, 0x08000300)  returns 0x00 (0000ms, 0693ms total)
T0490 000:888 JLINK_WriteReg(R1, 0x00000080)  returns 0x00 (0000ms, 0693ms total)
T0490 000:888 JLINK_WriteReg(R2, 0x00000000)  returns 0x00 (0000ms, 0693ms total)
T0490 000:888 JLINK_WriteReg(R3, 0x00000000)  returns 0x00 (0000ms, 0693ms total)
T0490 000:888 JLINK_WriteReg(R4, 0x00000000)  returns 0x00 (0000ms, 0693ms total)
T0490 000:888 JLINK_WriteReg(R5, 0x00000000)  returns 0x00 (0000ms, 0693ms total)
T0490 000:888 JLINK_WriteReg(R6, 0x00000000)  returns 0x00 (0000ms, 0693ms total)
T0490 000:888 JLINK_WriteReg(R7, 0x00000000)  returns 0x00 (0000ms, 0693ms total)
T0490 000:888 JLINK_WriteReg(R8, 0x00000000)  returns 0x00 (0000ms, 0693ms total)
T0490 000:888 JLINK_WriteReg(R9, 0x2000013C)  returns 0x00 (0000ms, 0693ms total)
T0490 000:888 JLINK_WriteReg(R10, 0x00000000)  returns 0x00 (0000ms, 0693ms total)
T0490 000:888 JLINK_WriteReg(R11, 0x00000000)  returns 0x00 (0000ms, 0693ms total)
T0490 000:888 JLINK_WriteReg(R12, 0x00000000)  returns 0x00 (0000ms, 0693ms total)
T0490 000:888 JLINK_WriteReg(R13 (SP), 0x20001000)  returns 0x00 (0000ms, 0693ms total)
T0490 000:888 JLINK_WriteReg(R14, 0x20000001)  returns 0x00 (0000ms, 0693ms total)
T0490 000:888 JLINK_WriteReg(R15 (PC), 0x200000B0)  returns 0x00 (0000ms, 0693ms total)
T0490 000:888 JLINK_WriteReg(XPSR, 0x01000000)  returns 0x00 (0000ms, 0693ms total)
T0490 000:888 JLINK_WriteReg(MSP, 0x20001000)  returns 0x00 (0000ms, 0693ms total)
T0490 000:888 JLINK_WriteReg(PSP, 0x20001000)  returns 0x00 (0000ms, 0693ms total)
T0490 000:888 JLINK_WriteReg(CFBP, 0x00000000)  returns 0x00 (0000ms, 0693ms total)
T0490 000:888 JLINK_SetBPEx(Addr = 0x20000000, Type = 0xFFFFFFF2)  returns 0x0000000E (0000ms, 0693ms total)
T0490 000:888 JLINK_Go() -- CPU_ReadMem(4 bytes @ 0xE0001000) -- CPU_WriteMem(4 bytes @ 0xE0001000) (0006ms, 0699ms total)
T0490 000:894 JLINK_IsHalted() -- CPU_ReadMem(2 bytes @ 0x20000000)  returns TRUE (0005ms, 0704ms total)
T0490 000:899 JLINK_ReadReg(R15 (PC))  returns 0x20000000 (0000ms, 0699ms total)
T0490 000:899 JLINK_ClrBPEx(BPHandle = 0x0000000E)  returns 0x00 (0000ms, 0699ms total)
T0490 000:899 JLINK_ReadReg(R0)  returns 0x00000001 (0000ms, 0699ms total)
T0490 000:899 JLINK_WriteReg(R0, 0x08000300)  returns 0x00 (0000ms, 0699ms total)
T0490 000:899 JLINK_WriteReg(R1, 0x00000080)  returns 0x00 (0000ms, 0699ms total)
T0490 000:899 JLINK_WriteReg(R2, 0x00000000)  returns 0x00 (0000ms, 0699ms total)
T0490 000:899 JLINK_WriteReg(R3, 0x00000000)  returns 0x00 (0000ms, 0699ms total)
T0490 000:899 JLINK_WriteReg(R4, 0x00000000)  returns 0x00 (0000ms, 0699ms total)
T0490 000:899 JLINK_WriteReg(R5, 0x00000000)  returns 0x00 (0000ms, 0699ms total)
T0490 000:899 JLINK_WriteReg(R6, 0x00000000)  returns 0x00 (0000ms, 0699ms total)
T0490 000:899 JLINK_WriteReg(R7, 0x00000000)  returns 0x00 (0000ms, 0699ms total)
T0490 000:899 JLINK_WriteReg(R8, 0x00000000)  returns 0x00 (0000ms, 0699ms total)
T0490 000:899 JLINK_WriteReg(R9, 0x2000013C)  returns 0x00 (0000ms, 0699ms total)
T0490 000:899 JLINK_WriteReg(R10, 0x00000000)  returns 0x00 (0000ms, 0699ms total)
T0490 000:899 JLINK_WriteReg(R11, 0x00000000)  returns 0x00 (0000ms, 0699ms total)
T0490 000:899 JLINK_WriteReg(R12, 0x00000000)  returns 0x00 (0000ms, 0699ms total)
T0490 000:899 JLINK_WriteReg(R13 (SP), 0x20001000)  returns 0x00 (0000ms, 0699ms total)
T0490 000:899 JLINK_WriteReg(R14, 0x20000001)  returns 0x00 (0000ms, 0699ms total)
T0490 000:899 JLINK_WriteReg(R15 (PC), 0x2000007A)  returns 0x00 (0000ms, 0699ms total)
T0490 000:899 JLINK_WriteReg(XPSR, 0x01000000)  returns 0x00 (0000ms, 0699ms total)
T0490 000:899 JLINK_WriteReg(MSP, 0x20001000)  returns 0x00 (0000ms, 0699ms total)
T0490 000:899 JLINK_WriteReg(PSP, 0x20001000)  returns 0x00 (0000ms, 0699ms total)
T0490 000:899 JLINK_WriteReg(CFBP, 0x00000000)  returns 0x00 (0000ms, 0699ms total)
T0490 000:899 JLINK_SetBPEx(Addr = 0x20000000, Type = 0xFFFFFFF2)  returns 0x0000000F (0000ms, 0699ms total)
T0490 000:899 JLINK_Go() -- CPU_ReadMem(4 bytes @ 0xE0001000) -- CPU_WriteMem(4 bytes @ 0xE0001000) (0004ms, 0703ms total)
T0490 000:903 JLINK_IsHalted()  returns FALSE (0001ms, 0704ms total)
T0490 000:914 JLINK_IsHalted() -- CPU_ReadMem(2 bytes @ 0x20000000)  returns TRUE (0005ms, 0708ms total)
T0490 000:919 JLINK_ReadReg(R15 (PC))  returns 0x20000000 (0000ms, 0703ms total)
T0490 000:919 JLINK_ClrBPEx(BPHandle = 0x0000000F)  returns 0x00 (0000ms, 0703ms total)
T0490 000:919 JLINK_ReadReg(R0)  returns 0x00000000 (0000ms, 0703ms total)
T0490 000:919 JLINK_WriteReg(R0, 0x08000380)  returns 0x00 (0000ms, 0703ms total)
T0490 000:919 JLINK_WriteReg(R1, 0x00000080)  returns 0x00 (0000ms, 0703ms total)
T0490 000:919 JLINK_WriteReg(R2, 0x00000000)  returns 0x00 (0000ms, 0703ms total)
T0490 000:919 JLINK_WriteReg(R3, 0x00000000)  returns 0x00 (0000ms, 0703ms total)
T0490 000:919 JLINK_WriteReg(R4, 0x00000000)  returns 0x00 (0000ms, 0703ms total)
T0490 000:919 JLINK_WriteReg(R5, 0x00000000)  returns 0x00 (0000ms, 0703ms total)
T0490 000:919 JLINK_WriteReg(R6, 0x00000000)  returns 0x00 (0000ms, 0703ms total)
T0490 000:919 JLINK_WriteReg(R7, 0x00000000)  returns 0x00 (0000ms, 0703ms total)
T0490 000:919 JLINK_WriteReg(R8, 0x00000000)  returns 0x00 (0000ms, 0703ms total)
T0490 000:919 JLINK_WriteReg(R9, 0x2000013C)  returns 0x00 (0000ms, 0703ms total)
T0490 000:919 JLINK_WriteReg(R10, 0x00000000)  returns 0x00 (0000ms, 0703ms total)
T0490 000:919 JLINK_WriteReg(R11, 0x00000000)  returns 0x00 (0000ms, 0703ms total)
T0490 000:919 JLINK_WriteReg(R12, 0x00000000)  returns 0x00 (0000ms, 0703ms total)
T0490 000:919 JLINK_WriteReg(R13 (SP), 0x20001000)  returns 0x00 (0000ms, 0703ms total)
T0490 000:919 JLINK_WriteReg(R14, 0x20000001)  returns 0x00 (0000ms, 0703ms total)
T0490 000:919 JLINK_WriteReg(R15 (PC), 0x200000B0)  returns 0x00 (0000ms, 0703ms total)
T0490 000:919 JLINK_WriteReg(XPSR, 0x01000000)  returns 0x00 (0000ms, 0703ms total)
T0490 000:919 JLINK_WriteReg(MSP, 0x20001000)  returns 0x00 (0000ms, 0703ms total)
T0490 000:919 JLINK_WriteReg(PSP, 0x20001000)  returns 0x00 (0000ms, 0703ms total)
T0490 000:919 JLINK_WriteReg(CFBP, 0x00000000)  returns 0x00 (0000ms, 0703ms total)
T0490 000:919 JLINK_SetBPEx(Addr = 0x20000000, Type = 0xFFFFFFF2)  returns 0x00000010 (0000ms, 0703ms total)
T0490 000:919 JLINK_Go() -- CPU_ReadMem(4 bytes @ 0xE0001000) -- CPU_WriteMem(4 bytes @ 0xE0001000) (0006ms, 0709ms total)
T0490 000:925 JLINK_IsHalted() -- CPU_ReadMem(2 bytes @ 0x20000000)  returns TRUE (0005ms, 0714ms total)
T0490 000:930 JLINK_ReadReg(R15 (PC))  returns 0x20000000 (0000ms, 0709ms total)
T0490 000:930 JLINK_ClrBPEx(BPHandle = 0x00000010)  returns 0x00 (0000ms, 0709ms total)
T0490 000:930 JLINK_ReadReg(R0)  returns 0x00000001 (0000ms, 0709ms total)
T0490 000:930 JLINK_WriteReg(R0, 0x08000380)  returns 0x00 (0000ms, 0709ms total)
T0490 000:930 JLINK_WriteReg(R1, 0x00000080)  returns 0x00 (0000ms, 0709ms total)
T0490 000:930 JLINK_WriteReg(R2, 0x00000000)  returns 0x00 (0000ms, 0709ms total)
T0490 000:930 JLINK_WriteReg(R3, 0x00000000)  returns 0x00 (0000ms, 0709ms total)
T0490 000:930 JLINK_WriteReg(R4, 0x00000000)  returns 0x00 (0000ms, 0709ms total)
T0490 000:930 JLINK_WriteReg(R5, 0x00000000)  returns 0x00 (0000ms, 0709ms total)
T0490 000:930 JLINK_WriteReg(R6, 0x00000000)  returns 0x00 (0000ms, 0709ms total)
T0490 000:930 JLINK_WriteReg(R7, 0x00000000)  returns 0x00 (0000ms, 0709ms total)
T0490 000:930 JLINK_WriteReg(R8, 0x00000000)  returns 0x00 (0000ms, 0709ms total)
T0490 000:930 JLINK_WriteReg(R9, 0x2000013C)  returns 0x00 (0000ms, 0709ms total)
T0490 000:930 JLINK_WriteReg(R10, 0x00000000)  returns 0x00 (0000ms, 0709ms total)
T0490 000:930 JLINK_WriteReg(R11, 0x00000000)  returns 0x00 (0000ms, 0709ms total)
T0490 000:930 JLINK_WriteReg(R12, 0x00000000)  returns 0x00 (0000ms, 0709ms total)
T0490 000:930 JLINK_WriteReg(R13 (SP), 0x20001000)  returns 0x00 (0000ms, 0709ms total)
T0490 000:930 JLINK_WriteReg(R14, 0x20000001)  returns 0x00 (0000ms, 0709ms total)
T0490 000:930 JLINK_WriteReg(R15 (PC), 0x2000007A)  returns 0x00 (0000ms, 0709ms total)
T0490 000:930 JLINK_WriteReg(XPSR, 0x01000000)  returns 0x00 (0000ms, 0709ms total)
T0490 000:930 JLINK_WriteReg(MSP, 0x20001000)  returns 0x00 (0000ms, 0709ms total)
T0490 000:930 JLINK_WriteReg(PSP, 0x20001000)  returns 0x00 (0000ms, 0709ms total)
T0490 000:930 JLINK_WriteReg(CFBP, 0x00000000)  returns 0x00 (0000ms, 0709ms total)
T0490 000:930 JLINK_SetBPEx(Addr = 0x20000000, Type = 0xFFFFFFF2)  returns 0x00000011 (0000ms, 0709ms total)
T0490 000:930 JLINK_Go() -- CPU_ReadMem(4 bytes @ 0xE0001000) -- CPU_WriteMem(4 bytes @ 0xE0001000) (0004ms, 0713ms total)
T0490 000:934 JLINK_IsHalted()  returns FALSE (0001ms, 0714ms total)
T0490 000:939 JLINK_IsHalted() -- CPU_ReadMem(2 bytes @ 0x20000000)  returns TRUE (0005ms, 0718ms total)
T0490 000:944 JLINK_ReadReg(R15 (PC))  returns 0x20000000 (0000ms, 0713ms total)
T0490 000:944 JLINK_ClrBPEx(BPHandle = 0x00000011)  returns 0x00 (0000ms, 0713ms total)
T0490 000:944 JLINK_ReadReg(R0)  returns 0x00000000 (0000ms, 0713ms total)
T0490 000:944 JLINK_WriteReg(R0, 0x08000400)  returns 0x00 (0000ms, 0713ms total)
T0490 000:944 JLINK_WriteReg(R1, 0x00000080)  returns 0x00 (0000ms, 0713ms total)
T0490 000:944 JLINK_WriteReg(R2, 0x00000000)  returns 0x00 (0000ms, 0713ms total)
T0490 000:944 JLINK_WriteReg(R3, 0x00000000)  returns 0x00 (0000ms, 0713ms total)
T0490 000:944 JLINK_WriteReg(R4, 0x00000000)  returns 0x00 (0000ms, 0713ms total)
T0490 000:944 JLINK_WriteReg(R5, 0x00000000)  returns 0x00 (0000ms, 0713ms total)
T0490 000:944 JLINK_WriteReg(R6, 0x00000000)  returns 0x00 (0000ms, 0713ms total)
T0490 000:944 JLINK_WriteReg(R7, 0x00000000)  returns 0x00 (0000ms, 0713ms total)
T0490 000:944 JLINK_WriteReg(R8, 0x00000000)  returns 0x00 (0000ms, 0713ms total)
T0490 000:944 JLINK_WriteReg(R9, 0x2000013C)  returns 0x00 (0000ms, 0713ms total)
T0490 000:944 JLINK_WriteReg(R10, 0x00000000)  returns 0x00 (0000ms, 0713ms total)
T0490 000:944 JLINK_WriteReg(R11, 0x00000000)  returns 0x00 (0000ms, 0713ms total)
T0490 000:944 JLINK_WriteReg(R12, 0x00000000)  returns 0x00 (0000ms, 0713ms total)
T0490 000:944 JLINK_WriteReg(R13 (SP), 0x20001000)  returns 0x00 (0000ms, 0713ms total)
T0490 000:944 JLINK_WriteReg(R14, 0x20000001)  returns 0x00 (0000ms, 0713ms total)
T0490 000:944 JLINK_WriteReg(R15 (PC), 0x200000B0)  returns 0x00 (0000ms, 0713ms total)
T0490 000:944 JLINK_WriteReg(XPSR, 0x01000000)  returns 0x00 (0000ms, 0713ms total)
T0490 000:944 JLINK_WriteReg(MSP, 0x20001000)  returns 0x00 (0000ms, 0713ms total)
